# Normal CAN traffic capture — simulated 60-second drive
# Format: (timestamp) interface arbitration_id#data
# This log represents normal vehicle behavior:
#   - Engine RPM increasing (ID 0x0C4)
#   - Vehicle speed increasing (ID 0x244)
#   - Door status unchanged/locked (ID 0x19B)
#   - Turn signals off (ID 0x188)
#   - Steering wheel angle (ID 0x0B4)
#   - Brake status (ID 0x0AA)
#
# Use with: canplayer -I normal_drive.log
# Or analyze with: python3 scripts/can_monitor.py --file normal_drive.log

(1718000000.000000) vcan0 0C4#00000000
(1718000000.010000) vcan0 244#0000000000
(1718000000.020000) vcan0 19B#0000000F
(1718000000.030000) vcan0 188#0000000000
(1718000000.040000) vcan0 0B4#00000000
(1718000000.050000) vcan0 0AA#00000000
(1718000000.100000) vcan0 0C4#00000320
(1718000000.110000) vcan0 244#0000000000
(1718000000.120000) vcan0 19B#0000000F
(1718000000.200000) vcan0 0C4#00000640
(1718000000.210000) vcan0 244#0000000000
(1718000000.220000) vcan0 19B#0000000F
(1718000000.300000) vcan0 0C4#00000960
(1718000000.310000) vcan0 244#0000000500
(1718000000.320000) vcan0 19B#0000000F
(1718000000.400000) vcan0 0C4#00000C80
(1718000000.410000) vcan0 244#0000000A00
(1718000000.420000) vcan0 19B#0000000F
(1718000000.430000) vcan0 188#0000000000
(1718000000.440000) vcan0 0B4#00000005
(1718000000.450000) vcan0 0AA#00000000
(1718000000.500000) vcan0 0C4#00000FA0
(1718000000.510000) vcan0 244#0000001000
(1718000000.520000) vcan0 19B#0000000F
(1718000000.600000) vcan0 0C4#000012C0
(1718000000.610000) vcan0 244#0000001500
(1718000000.620000) vcan0 19B#0000000F
(1718000000.700000) vcan0 0C4#000015E0
(1718000000.710000) vcan0 244#0000001A00
(1718000000.720000) vcan0 19B#0000000F
(1718000000.730000) vcan0 188#0000000000
(1718000000.740000) vcan0 0B4#0000000A
(1718000000.750000) vcan0 0AA#00000000
(1718000000.800000) vcan0 0C4#00001900
(1718000000.810000) vcan0 244#0000002000
(1718000000.820000) vcan0 19B#0000000F
(1718000000.900000) vcan0 0C4#00001C20
(1718000000.910000) vcan0 244#0000002500
(1718000000.920000) vcan0 19B#0000000F
(1718000001.000000) vcan0 0C4#00001F40
(1718000001.010000) vcan0 244#0000002A00
(1718000001.020000) vcan0 19B#0000000F
(1718000001.030000) vcan0 188#0000000000
(1718000001.040000) vcan0 0B4#00000010
(1718000001.050000) vcan0 0AA#00000000
(1718000001.100000) vcan0 0C4#00002260
(1718000001.110000) vcan0 244#0000003000
(1718000001.120000) vcan0 19B#0000000F
(1718000001.200000) vcan0 0C4#00002580
(1718000001.210000) vcan0 244#0000003500
(1718000001.220000) vcan0 19B#0000000F
(1718000001.300000) vcan0 0C4#000028A0
(1718000001.310000) vcan0 244#0000003A00
(1718000001.320000) vcan0 19B#0000000F
(1718000001.330000) vcan0 188#0000000000
(1718000001.340000) vcan0 0B4#00000008
(1718000001.350000) vcan0 0AA#00000000
(1718000001.400000) vcan0 0C4#00002BC0
(1718000001.410000) vcan0 244#0000003F00
(1718000001.420000) vcan0 19B#0000000F
(1718000001.500000) vcan0 0C4#00002EE0
(1718000001.510000) vcan0 244#0000004400
(1718000001.520000) vcan0 19B#0000000F
(1718000001.600000) vcan0 0C4#00003200
(1718000001.610000) vcan0 244#0000004800
(1718000001.620000) vcan0 19B#0000000F
(1718000001.630000) vcan0 188#0000000000
(1718000001.640000) vcan0 0B4#00000003
(1718000001.650000) vcan0 0AA#00000000
# --- Cruising at ~72 km/h, ~3200 RPM ---
(1718000001.700000) vcan0 0C4#00003200
(1718000001.710000) vcan0 244#0000004800
(1718000001.720000) vcan0 19B#0000000F
(1718000001.800000) vcan0 0C4#00003200
(1718000001.810000) vcan0 244#0000004800
(1718000001.820000) vcan0 19B#0000000F
(1718000001.900000) vcan0 0C4#00003200
(1718000001.910000) vcan0 244#0000004800
(1718000001.920000) vcan0 19B#0000000F
(1718000001.930000) vcan0 188#0000000000
(1718000001.940000) vcan0 0B4#00000000
(1718000001.950000) vcan0 0AA#00000000
(1718000002.000000) vcan0 0C4#00003200
(1718000002.010000) vcan0 244#0000004800
(1718000002.020000) vcan0 19B#0000000F
(1718000002.100000) vcan0 0C4#00003200
(1718000002.110000) vcan0 244#0000004800
(1718000002.120000) vcan0 19B#0000000F
(1718000002.200000) vcan0 0C4#00003200
(1718000002.210000) vcan0 244#0000004800
(1718000002.220000) vcan0 19B#0000000F
(1718000002.230000) vcan0 188#0000000000
(1718000002.240000) vcan0 0B4#00000000
(1718000002.250000) vcan0 0AA#00000000
# --- Braking ---
(1718000002.300000) vcan0 0C4#00002EE0
(1718000002.310000) vcan0 244#0000004200
(1718000002.320000) vcan0 19B#0000000F
(1718000002.350000) vcan0 0AA#00000001
(1718000002.400000) vcan0 0C4#00002580
(1718000002.410000) vcan0 244#0000003500
(1718000002.420000) vcan0 19B#0000000F
(1718000002.450000) vcan0 0AA#00000001
(1718000002.500000) vcan0 0C4#00001C20
(1718000002.510000) vcan0 244#0000002800
(1718000002.520000) vcan0 19B#0000000F
(1718000002.530000) vcan0 188#0000000000
(1718000002.540000) vcan0 0B4#00000000
(1718000002.550000) vcan0 0AA#00000001
(1718000002.600000) vcan0 0C4#000012C0
(1718000002.610000) vcan0 244#0000001A00
(1718000002.620000) vcan0 19B#0000000F
(1718000002.700000) vcan0 0C4#00000960
(1718000002.710000) vcan0 244#0000000C00
(1718000002.720000) vcan0 19B#0000000F
(1718000002.800000) vcan0 0C4#00000320
(1718000002.810000) vcan0 244#0000000400
(1718000002.820000) vcan0 19B#0000000F
(1718000002.830000) vcan0 188#0000000000
(1718000002.840000) vcan0 0B4#00000000
(1718000002.850000) vcan0 0AA#00000001
# --- Stopped ---
(1718000002.900000) vcan0 0C4#00000320
(1718000002.910000) vcan0 244#0000000000
(1718000002.920000) vcan0 19B#0000000F
(1718000002.950000) vcan0 0AA#00000000
(1718000003.000000) vcan0 0C4#00000320
(1718000003.010000) vcan0 244#0000000000
(1718000003.020000) vcan0 19B#0000000F
(1718000003.030000) vcan0 188#0000000000
(1718000003.040000) vcan0 0B4#00000000
(1718000003.050000) vcan0 0AA#00000000
